#!/bin/bash

# initialisation SAA1064
i2cset -y 1 0x38 00 0x17
i2cset -y 1 0x38 01 0x00
i2cset -y 1 0x38 02 0x00
i2cset -y 1 0x38 03 0x00
i2cset -y 1 0x38 04 0x00

i2cset -y 1 0x39 00 0x17
i2cset -y 1 0x39 01 0x00
i2cset -y 1 0x39 02 0x00
i2cset -y 1 0x39 03 0x00
i2cset -y 1 0x39 04 0x00

i2cset -y 1 0x3a 00 0x17
i2cset -y 1 0x3a 01 0x00
i2cset -y 1 0x3a 02 0x00
i2cset -y 1 0x3a 03 0x00
i2cset -y 1 0x3a 04 0x00

i2cset -y 1 0x3b 00 0x17
i2cset -y 1 0x3b 01 0x00
i2cset -y 1 0x3b 02 0x00
i2cset -y 1 0x3b 03 0x00
i2cset -y 1 0x3b 04 0x00
