#!/bin/bash

# initialisation SAA1064
i2cset -y 1 0x38 00 0x17
i2cset -y 1 0x38 01 0x00
i2cset -y 1 0x38 02 0x00
i2cset -y 1 0x38 03 0x00
i2cset -y 1 0x38 04 0x00

i2cset -y 1 0x39 00 0x17
i2cset -y 1 0x39 01 0x00
i2cset -y 1 0x39 02 0x00
i2cset -y 1 0x39 03 0x00
i2cset -y 1 0x39 04 0x00

i2cset -y 1 0x3a 00 0x17
i2cset -y 1 0x3a 01 0x00
i2cset -y 1 0x3a 02 0x00
i2cset -y 1 0x3a 03 0x00
i2cset -y 1 0x3a 04 0x00

i2cset -y 1 0x3b 00 0x17
i2cset -y 1 0x3b 01 0x00
i2cset -y 1 0x3b 02 0x00
i2cset -y 1 0x3b 03 0x00
i2cset -y 1 0x3b 04 0x00

# I BI AE UHR
i2cset -y 1 0x39 01 0x80
sleep 1
i2cset -y 1 0x39 04 0x18
sleep 1
i2cset -y 1 0x3b 02 0x10
sleep 1
i2cset -y 1 0x38 01 0x07
sleep 1

while true
do
  LEDS_38_01=0
  LEDS_38_02=0
  LEDS_38_03=0
  LEDS_38_04=0

  LEDS_39_01=0
  LEDS_39_02=0
  LEDS_39_03=0
  LEDS_39_04=0

  LEDS_3a_01=0
  LEDS_3a_02=0
  LEDS_3a_03=0
  LEDS_3a_04=0

  LEDS_3b_01=0
  LEDS_3b_02=0
  LEDS_3b_03=0
  LEDS_3b_04=0

  H=$(date +%H)
  M=$(date +%M)

  if [[ $M > 24 ]]
  then
    #((H=H+1))
    let H=H+1
  fi

  case $H in
    01|13) let LEDS_3b_03=$((LEDS_3b_03^224))
           ;;
    02|14) let LEDS_3a_04=$((LEDS_3a_04^240))
           ;;
    03|15) let LEDS_3a_04=$((LEDS_3a_04^7))
           ;;
    04|16) let LEDS_3b_02=$((LEDS_3b_02^7))
           let LEDS_3a_02=$((LEDS_3a_02^192))
           ;;
    05|17) let LEDS_3a_02=$((LEDS_3a_02^60))
           ;;
    06|18) let LEDS_3b_02=$((LEDS_3b_02^56))
           let LEDS_3a_03=$((LEDS_3a_03^224))
           ;;
    07|19) let LEDS_3a_03=$((LEDS_3a_03^31))
           ;;
    08|20) let LEDS_3b_04=$((LEDS_3b_04^3))
           let LEDS_3a_01=$((LEDS_3a_01^192))
           let LEDS_3b_02=$((LEDS_3b_02^64))
           ;;
    09|21) let LEDS_3a_01=$((LEDS_3a_01^60))
           ;;
    10|22) let LEDS_3b_04=$((LEDS_3b_04^28))
           let LEDS_38_03=$((LEDS_38_03^128))
           ;;
    11|23) let LEDS_38_03=$((LEDS_38_03^15))
           ;;
    12|00) let LEDS_3b_04=$((LEDS_3b_04^224))
           let LEDS_38_01=$((LEDS_38_01^224))
           ;;
        *) ;;
  esac

  # + MINUTEN
  I=$(expr $M % 5)
  case $I in
    1) # LO
       let LEDS_3b_01=$((LEDS_3b_01^128))
       ;;
    2) # RO
       let LEDS_3b_01=$((LEDS_3b_01^128))
       let LEDS_38_04=$((LEDS_38_04^1))
       ;;
    3) # RU
       let LEDS_3b_01=$((LEDS_3b_01^128))
       let LEDS_38_04=$((LEDS_38_04^1))
       let LEDS_38_02=$((LEDS_38_01^1))
       ;;
    4) # LU
       let LEDS_3b_01=$((LEDS_3b_01^128))
       let LEDS_38_04=$((LEDS_38_04^1))
       let LEDS_38_02=$((LEDS_38_01^1))
       let LEDS_3b_02=$((LEDS_3b_02^128))
       ;;
    *) ;;
  esac

  case $M in
     00|01|02|03|04) ;;
     05|06|07|08|09) # FUEF
                     let LEDS_39_01=$((LEDS_39_01^7))
                     # AB
                     let LEDS_3b_03=$((LEDS_3b_03^24))
                     ;;
     10|11|12|13|14) # ZAE
                     let LEDS_39_03=$((LEDS_39_03^7))
                     # AB
                     let LEDS_3b_03=$((LEDS_3b_03^24))
                     ;;
     15|16|17|18|19) # VIERTU
                     let LEDS_3b_01=$((LEDS_3b_03^56))
                     let LEDS_39_03=$((LEDS_3b_03^224))
                     # AB
                     let LEDS_3b_03=$((LEDS_3b_03^24))
                     ;;
     20|21|22|23|24) # ZWANZG
                     let LEDS_3b_01=$((LEDS_3b_01^64))
                     let LEDS_3b_03=$((LEDS_3b_03^3))
                     let LEDS_39_02=$((LEDS_39_02^224))
                     # AB 
                     let LEDS_3b_03=$((LEDS_3b_03^24))
                     ;;
     25|26|27|28|29) # FUEF
                     let LEDS_39_01=$((LEDS_39_01^7))
                     # VOR
                     let LEDS_39_02=$((LEDS_39_02^7))
                     # HAUBI
                     let LEDS_39_04=$((LEDS_39_04^248))
                     ;;
     30|31|32|33|34) # HAUBI
                     let LEDS_39_04=$((LEDS_39_04^248))
                     ;;
     35|36|37|38|39) # FUEF
                     let LEDS_39_01=$((LEDS_39_01^7))
                     # AB
                     let LEDS_3b_03=$((LEDS_3b_03^24))
                     # HAUBI
                     let LEDS_39_04=$((LEDS_39_04^248))
                     ;;
     40|41|42|43|44) # ZWANZG
                     let LEDS_3b_01=$((LEDS_3b_01^64))
                     let LEDS_3b_03=$((LEDS_3b_03^3))
                     let LEDS_39_02=$((LEDS_39_02^224))
                     # VOR
                     let LEDS_39_02=$((LEDS_39_02^7))
                     ;;
     45|46|47|48|49) # VIERTU 
                     let LEDS_3b_01=$((LEDS_3b_01^56))
                     let LEDS_39_03=$((LEDS_39_03^224))
                     # VOR
                     let LEDS_39_02=$((LEDS_39_02^7))
                     ;;
     50|51|52|53|54) # ZAE
                     let LEDS_39_03=$((LEDS_39_03^7))
                     # VOR
                     let LEDS_39_02=$((LEDS_39_02^7))
                     ;;
     55|56|57|58|59) # FUEF
                     let LEDS_39_01=$((LEDS_39_01^7))
                     # VOR
                     let LEDS_39_02=$((LEDS_39_02^7))
                     ;;
                  *) ;;
  esac

  # ES ISCH
  let LEDS_3b_01=$(($LEDS_3b_01^6))
  let LEDS_39_01=$(($LEDS_39_01^240))

  # set time
  i2cset -y 1 0x38 01 $LEDS_38_01
  i2cset -y 1 0x38 02 $LEDS_38_02
  i2cset -y 1 0x38 03 $LEDS_38_03
  i2cset -y 1 0x38 04 $LEDS_38_04

  i2cset -y 1 0x39 01 $LEDS_39_01
  i2cset -y 1 0x39 02 $LEDS_39_02
  i2cset -y 1 0x39 03 $LEDS_39_03
  i2cset -y 1 0x39 04 $LEDS_39_04

  i2cset -y 1 0x3a 01 $LEDS_3a_01
  i2cset -y 1 0x3a 02 $LEDS_3a_02
  i2cset -y 1 0x3a 03 $LEDS_3a_03
  i2cset -y 1 0x3a 04 $LEDS_3a_04

  i2cset -y 1 0x3b 01 $LEDS_3b_01
  i2cset -y 1 0x3b 02 $LEDS_3b_02
  i2cset -y 1 0x3b 03 $LEDS_3b_03
  i2cset -y 1 0x3b 04 $LEDS_3b_04

  sleep 5

done
